!CSV A.01.01
!Agilent Technologies,N5230C,MY49001079,A.09.31.02
!Agilent N5230C: A.09.31.02
!Date: Friday, November 15, 2019 16:13:54
!Source: Standard

BEGIN CH1_DATA
Freq(Hz),S11(DB),S11(DEG)
50000000,-1.300112,-44.495171
50029687.5,-1.3066109,-44.67075
50059375,-1.3097123,-44.591785
50089062.5,-1.3292018,-44.543633
50118750,-1.3246304,-44.559155
50148437.5,-1.3077017,-44.600235
50178125,-1.3313481,-44.453602
50207812.5,-1.3409723,-44.662319
50237500,-1.3301871,-44.597847
50267187.5,-1.3487929,-44.579243
50296875,-1.3740786,-44.670414
50326562.5,-1.3795713,-44.675003
50356250,-1.3705591,-44.572132
50385937.5,-1.4041635,-44.56546
50415625,-1.4230713,-44.499619
50445312.5,-1.3998934,-44.741772
50475000,-1.4056889,-44.56974
50504687.5,-1.4216484,-44.589275
50534375,-1.4346716,-44.628113
50564062.5,-1.4161245,-44.707504
50593750,-1.4204236,-44.504559
50623437.5,-1.4321812,-44.789635
50653125,-1.4526538,-44.517056
50682812.5,-1.4666276,-44.639645
50712500,-1.4678065,-44.633171
50742187.5,-1.4793932,-44.437057
50771875,-1.4764653,-44.486977
50801562.5,-1.4968941,-44.493172
50831250,-1.4890792,-44.518265
50860937.5,-1.4870272,-44.479023
50890625,-1.4945785,-44.600597
50920312.5,-1.4963117,-44.58786
50950000,-1.5192105,-44.390846
50979687.5,-1.52336,-44.477242
51009375,-1.501737,-44.577461
51039062.5,-1.5209849,-44.626194
51068750,-1.5211687,-44.343475
51098437.5,-1.533253,-44.407284
51128125,-1.541774,-44.330364
51157812.5,-1.5266794,-44.371437
51187500,-1.5397874,-44.432278
51217187.5,-1.5382402,-44.377853
51246875,-1.5479827,-44.463093
51276562.5,-1.5600935,-44.415394
51306250,-1.5809838,-44.273754
51335937.5,-1.5770959,-44.297413
51365625,-1.5782706,-44.396683
51395312.5,-1.5775578,-44.314163
51425000,-1.5774776,-44.304653
51454687.5,-1.5957123,-44.25309
51484375,-1.5968159,-44.230152
51514062.5,-1.6003374,-44.225952
51543750,-1.5895036,-44.299141
51573437.5,-1.5930749,-44.184433
51603125,-1.5904884,-44.213158
51632812.5,-1.6039315,-44.062679
51662500,-1.6023518,-44.137264
51692187.5,-1.5886163,-44.088993
51721875,-1.597546,-44.023018
51751562.5,-1.5953034,-43.9417
51781250,-1.6154088,-44.000935
51810937.5,-1.6101661,-44.084736
51840625,-1.6142502,-43.876389
51870312.5,-1.6336266,-44.025158
51900000,-1.6090348,-43.990089
51929687.5,-1.6176322,-43.838387
51959375,-1.6274197,-43.787453
51989062.5,-1.6103821,-43.873039
52018750,-1.6271075,-43.916374
52048437.5,-1.6129616,-43.837097
52078125,-1.6144341,-43.960667
52107812.5,-1.6194092,-43.855434
52137500,-1.6209352,-43.963982
52167187.5,-1.6097608,-43.807171
52196875,-1.6231617,-43.685493
52226562.5,-1.6155379,-43.794247
52256250,-1.6124463,-43.697247
52285937.5,-1.6195087,-43.648956
52315625,-1.6361665,-43.680973
52345312.5,-1.6085298,-43.829269
52375000,-1.6275588,-43.781136
52404687.5,-1.6181852,-43.567513
52434375,-1.6190529,-43.836163
52464062.5,-1.6573393,-43.638401
52493750,-1.6154193,-43.513481
52523437.5,-1.6294892,-43.747158
52553125,-1.6135623,-43.547775
52582812.5,-1.6075426,-43.558334
52612500,-1.6113272,-43.356991
52642187.5,-1.6187664,-43.519497
52671875,-1.6203383,-43.640846
52701562.5,-1.5791966,-43.49284
52731250,-1.6233022,-43.453495
52760937.5,-1.6072493,-43.511539
52790625,-1.6021276,-43.358963
52820312.5,-1.6156608,-43.513088
52850000,-1.6014279,-43.593224
52879687.5,-1.595216,-43.393345
52909375,-1.6009573,-43.569206
52939062.5,-1.6231374,-43.429146
52968750,-1.6225808,-43.543339
52998437.5,-1.6199007,-43.591354
53028125,-1.5974761,-43.500336
53057812.5,-1.5964572,-43.359676
53087500,-1.5920869,-43.333721
53117187.5,-1.6071484,-43.505852
53146875,-1.5981665,-43.312401
53176562.5,-1.5851172,-43.355633
53206250,-1.5809541,-43.380905
53235937.5,-1.5826638,-43.501377
53265625,-1.5891286,-43.353703
53295312.5,-1.568264,-43.350536
53325000,-1.5728742,-43.420139
53354687.5,-1.5725005,-43.409943
53384375,-1.5737333,-43.313332
53414062.5,-1.5679111,-43.404953
53443750,-1.5808613,-43.447906
53473437.5,-1.5541562,-43.55024
53503125,-1.5661951,-43.548637
53532812.5,-1.5538315,-43.471382
53562500,-1.5612385,-43.503124
53592187.5,-1.5644108,-43.368088
53621875,-1.5617701,-43.53384
53651562.5,-1.55102,-43.320347
53681250,-1.5416496,-43.487888
53710937.5,-1.5501301,-43.483318
53740625,-1.5419728,-43.376564
53770312.5,-1.5245624,-43.484322
53800000,-1.5452203,-43.60397
53829687.5,-1.5384799,-43.361435
53859375,-1.5258362,-43.484791
53889062.5,-1.5165708,-43.522339
53918750,-1.5241611,-43.685299
53948437.5,-1.5327817,-43.406921
53978125,-1.5237247,-43.596485
54007812.5,-1.538976,-43.565327
54037500,-1.5300579,-43.714031
54067187.5,-1.492422,-43.70425
54096875,-1.530637,-43.775822
54126562.5,-1.514629,-43.550404
54156250,-1.5062042,-43.84803
54185937.5,-1.5110192,-43.736282
54215625,-1.5027872,-43.885166
54245312.5,-1.4847836,-43.659241
54275000,-1.4960452,-43.556152
54304687.5,-1.5072373,-43.598896
54334375,-1.4704396,-43.766716
54364062.5,-1.4902599,-43.761158
54393750,-1.4915504,-43.771202
54423437.5,-1.4847393,-43.888584
54453125,-1.4776372,-43.763828
54482812.5,-1.4651359,-43.65173
54512500,-1.4849583,-43.79763
54542187.5,-1.4536809,-43.944794
54571875,-1.4909848,-43.779114
54601562.5,-1.4581543,-43.763947
54631250,-1.4487388,-43.936646
54660937.5,-1.4313021,-43.985165
54690625,-1.4529347,-44.039581
54720312.5,-1.4323108,-43.955299
54750000,-1.4671754,-44.123718
54779687.5,-1.4439445,-43.956387
54809375,-1.4285411,-44.076866
54839062.5,-1.4456269,-44.082504
54868750,-1.4334879,-44.082172
54898437.5,-1.4392987,-44.145523
54928125,-1.4349045,-44.11475
54957812.5,-1.4399341,-44.19928
54987500,-1.4471246,-44.248711
55017187.5,-1.4439203,-44.287903
55046875,-1.4472171,-44.142017
55076562.5,-1.4191238,-44.417709
55106250,-1.4353513,-44.166107
55135937.5,-1.4258962,-44.362457
55165625,-1.4052262,-44.283737
55195312.5,-1.4382353,-44.400635
55225000,-1.4120828,-44.479389
55254687.5,-1.4118284,-44.414776
55284375,-1.402804,-44.514099
55314062.5,-1.4359884,-44.46627
55343750,-1.4132395,-44.45533
55373437.5,-1.4016342,-44.594013
55403125,-1.4100209,-44.706795
55432812.5,-1.4114084,-44.613377
55462500,-1.4249693,-44.516083
55492187.5,-1.4306017,-44.71109
55521875,-1.4213345,-44.616299
55551562.5,-1.4010528,-44.619766
55581250,-1.3787973,-44.701641
55610937.5,-1.3877625,-44.826111
55640625,-1.3985738,-44.892643
55670312.5,-1.4217706,-44.854153
55700000,-1.4084642,-44.96629
55729687.5,-1.4215622,-44.863022
55759375,-1.3954394,-45.009235
55789062.5,-1.3888233,-44.924503
55818750,-1.389684,-45.051243
55848437.5,-1.3828951,-44.993771
55878125,-1.4039667,-45.035492
55907812.5,-1.3970904,-45.17384
55937500,-1.3759954,-45.272427
55967187.5,-1.3893158,-45.150642
55996875,-1.4052949,-45.2076
56026562.5,-1.3824856,-45.361649
56056250,-1.382216,-45.254196
56085937.5,-1.3832035,-45.390396
56115625,-1.4177794,-45.306534
56145312.5,-1.3862802,-45.455738
56175000,-1.3802425,-45.576225
56204687.5,-1.3781815,-45.366806
56234375,-1.3897535,-45.511726
56264062.5,-1.3714776,-45.521255
56293750,-1.3843317,-45.466152
56323437.5,-1.3891199,-45.538586
56353125,-1.3873152,-45.694973
56382812.5,-1.3657881,-45.764587
56412500,-1.3979343,-45.818947
56442187.5,-1.3966787,-45.70348
56471875,-1.3972031,-45.799385
56501562.5,-1.3913672,-45.802586
56531250,-1.3911568,-45.762928
56560937.5,-1.4031324,-45.940163
56590625,-1.3841392,-46.106289
56620312.5,-1.3638968,-45.848061
56650000,-1.3936723,-46.043777
56679687.5,-1.3825375,-46.058506
56709375,-1.4025815,-45.949356
56739062.5,-1.3622881,-46.144531
56768750,-1.3947911,-46.11969
56798437.5,-1.3793222,-46.190575
56828125,-1.3893096,-46.04258
56857812.5,-1.373219,-46.058041
56887500,-1.3785734,-46.137451
56917187.5,-1.395175,-46.231937
56946875,-1.3676524,-46.299721
56976562.5,-1.3890917,-46.28421
57006250,-1.3878802,-46.41782
57035937.5,-1.3669742,-46.414574
57065625,-1.3679664,-46.433475
57095312.5,-1.3893644,-46.359695
57125000,-1.3669145,-46.475685
57154687.5,-1.3916913,-46.654392
57184375,-1.3932469,-46.680477
57214062.5,-1.3887743,-46.665527
57243750,-1.3802559,-46.529266
57273437.5,-1.3961853,-46.645493
57303125,-1.4012175,-46.795235
57332812.5,-1.3954003,-46.695232
57362500,-1.3900794,-46.824509
57392187.5,-1.3920174,-46.881046
57421875,-1.4101157,-46.877182
57451562.5,-1.3948516,-47.00507
57481250,-1.3933502,-46.935802
57510937.5,-1.4054149,-46.889404
57540625,-1.3911308,-46.970043
57570312.5,-1.4083946,-46.963066
57600000,-1.3926675,-47.03709
57629687.5,-1.4204482,-47.163029
57659375,-1.4031334,-47.173283
57689062.5,-1.4228486,-47.134663
57718750,-1.4083652,-47.222507
57748437.5,-1.424381,-47.177475
57778125,-1.4042486,-47.245438
57807812.5,-1.4128786,-47.306438
57837500,-1.4386888,-47.362198
57867187.5,-1.4221144,-47.361366
57896875,-1.425984,-47.534576
57926562.5,-1.4206731,-47.348133
57956250,-1.4256593,-47.501934
57985937.5,-1.4064237,-47.601452
58015625,-1.4218482,-47.667019
58045312.5,-1.4256738,-47.384808
58075000,-1.4303004,-47.472847
58104687.5,-1.4129345,-47.51136
58134375,-1.431128,-47.574451
58164062.5,-1.4095575,-47.731621
58193750,-1.4375784,-47.758518
58223437.5,-1.4353192,-47.816895
58253125,-1.4484876,-47.631073
58282812.5,-1.4550916,-47.861698
58312500,-1.4397118,-47.88884
58342187.5,-1.4559102,-47.799789
58371875,-1.4613079,-47.903267
58401562.5,-1.45078,-48.029949
58431250,-1.4586347,-47.967991
58460937.5,-1.4569263,-48.041119
58490625,-1.4846224,-48.039486
58520312.5,-1.4574765,-48.135273
58550000,-1.4723892,-48.053658
58579687.5,-1.4697598,-48.21904
58609375,-1.4785744,-48.127014
58639062.5,-1.4844824,-48.173279
58668750,-1.4573146,-48.263985
58698437.5,-1.4817642,-48.200684
58728125,-1.4673498,-48.145359
58757812.5,-1.4632879,-48.266068
58787500,-1.494176,-48.315842
58817187.5,-1.5036498,-48.397606
58846875,-1.4780117,-48.208725
58876562.5,-1.4649059,-48.375523
58906250,-1.4838446,-48.368111
58935937.5,-1.4976107,-48.421432
58965625,-1.516554,-48.369396
58995312.5,-1.5019838,-48.479317
59025000,-1.4943088,-48.53088
59054687.5,-1.4939864,-48.37582
59084375,-1.5196193,-48.549469
59114062.5,-1.4872824,-48.589115
59143750,-1.5106064,-48.572891
59173437.5,-1.5070103,-48.596214
59203125,-1.5258377,-48.718048
59232812.5,-1.5182039,-48.569157
59262500,-1.5203705,-48.525028
59292187.5,-1.5183808,-48.687366
59321875,-1.5157394,-48.872784
59351562.5,-1.5282837,-48.643612
59381250,-1.5211006,-48.523014
59410937.5,-1.5432482,-48.763229
59440625,-1.5610989,-48.87706
59470312.5,-1.5468936,-48.925133
59500000,-1.5486962,-48.70599
59529687.5,-1.5533289,-48.69453
59559375,-1.5402873,-48.653198
59589062.5,-1.5392773,-48.82909
59618750,-1.5616897,-48.751827
59648437.5,-1.5568831,-48.594528
59678125,-1.5579576,-48.91901
59707812.5,-1.5830858,-48.805664
59737500,-1.5640628,-48.96656
59767187.5,-1.5556216,-48.877777
59796875,-1.593522,-49.063358
59826562.5,-1.596577,-48.945915
59856250,-1.5669854,-49.065151
59885937.5,-1.5868808,-49.121967
59915625,-1.5723027,-49.019455
59945312.5,-1.5836157,-49.02166
59975000,-1.5973599,-49.083302
60004687.5,-1.5739778,-48.981598
60034375,-1.6151667,-49.09243
60064062.5,-1.6128263,-48.95364
60093750,-1.6126828,-49.045597
60123437.5,-1.6183585,-49.169312
60153125,-1.6062509,-49.093388
60182812.5,-1.643077,-49.085361
60212500,-1.6305476,-49.056847
60242187.5,-1.6214273,-48.891869
60271875,-1.6243881,-48.978378
60301562.5,-1.6275197,-49.277931
60331250,-1.621686,-49.00153
60360937.5,-1.6357859,-49.150314
60390625,-1.6129974,-49.157398
60420312.5,-1.6210796,-49.092983
60450000,-1.6041167,-49.043396
60479687.5,-1.6438382,-48.939766
60509375,-1.6350714,-49.104691
60539062.5,-1.651195,-49.186501
60568750,-1.6268747,-49.072243
60598437.5,-1.6723931,-49.118526
60628125,-1.6440625,-49.231228
60657812.5,-1.6267248,-49.000019
60687500,-1.6577734,-49.053417
60717187.5,-1.6573714,-48.907204
60746875,-1.6657451,-48.960564
60776562.5,-1.6373395,-49.152946
60806250,-1.646682,-49.048653
60835937.5,-1.6475298,-49.000065
60865625,-1.6716083,-48.873844
60895312.5,-1.6578114,-48.911285
60925000,-1.6777222,-48.994385
60954687.5,-1.6688123,-49.25087
60984375,-1.6566807,-49.04921
61014062.5,-1.6361812,-49.092339
61043750,-1.6567597,-48.918564
61073437.5,-1.6659566,-48.868271
61103125,-1.6609645,-48.955036
61132812.5,-1.6580898,-48.996616
61162500,-1.6825542,-48.884769
61192187.5,-1.6609402,-48.936573
61221875,-1.6469924,-48.941238
61251562.5,-1.6438632,-48.888157
61281250,-1.64772,-48.918308
61310937.5,-1.6464734,-48.922344
61340625,-1.6545465,-48.862537
61370312.5,-1.6721692,-49.079174
61400000,-1.6661179,-48.928997
61429687.5,-1.6635889,-48.840801
61459375,-1.6494093,-48.983784
61489062.5,-1.6275836,-48.79216
61518750,-1.6324236,-48.912186
61548437.5,-1.6557328,-48.898071
61578125,-1.6221217,-48.794548
61607812.5,-1.6671835,-48.813599
61637500,-1.6103077,-48.848553
61667187.5,-1.6421493,-48.922031
61696875,-1.6236641,-48.935154
61726562.5,-1.6247407,-49.086765
61756250,-1.6173377,-48.89978
61785937.5,-1.6224369,-49.025532
61815625,-1.6278864,-48.858334
61845312.5,-1.6152505,-49.099979
61875000,-1.6281557,-48.978424
61904687.5,-1.6012224,-48.797882
61934375,-1.6196355,-48.963837
61964062.5,-1.635829,-49.012939
61993750,-1.6163669,-49.031281
62023437.5,-1.6150451,-48.921112
62053125,-1.5949271,-48.948105
62082812.5,-1.6179527,-48.932861
62112500,-1.5878049,-48.927738
62142187.5,-1.5926641,-49.005947
62171875,-1.6179006,-48.978748
62201562.5,-1.6122591,-48.875278
62231250,-1.6074988,-49.029976
62260937.5,-1.6190188,-49.044415
62290625,-1.6033227,-48.938808
62320312.5,-1.6081388,-49.039013
62350000,-1.5747827,-49.029388
62379687.5,-1.6000512,-49.009697
62409375,-1.5973681,-49.127911
62439062.5,-1.6108165,-49.066029
62468750,-1.5881758,-48.990364
62498437.5,-1.618004,-48.998032
62528125,-1.5993783,-49.143841
62557812.5,-1.5784982,-48.959393
62587500,-1.57831,-49.251091
62617187.5,-1.5696263,-48.985641
62646875,-1.5831996,-49.235168
62676562.5,-1.5899882,-49.196957
62706250,-1.5598668,-48.987827
62735937.5,-1.5633819,-48.921951
62765625,-1.5899084,-49.015903
62795312.5,-1.5718912,-49.013947
62825000,-1.5501465,-49.056969
62854687.5,-1.5803561,-49.088707
62884375,-1.5646814,-49.100296
62914062.5,-1.540401,-49.056171
62943750,-1.5489938,-49.108192
62973437.5,-1.5524892,-49.134869
63003125,-1.5457815,-49.240627
63032812.5,-1.5589855,-49.16259
63062500,-1.5436196,-49.151924
63092187.5,-1.5460656,-49.030468
63121875,-1.5390807,-49.173855
63151562.5,-1.5417969,-49.265198
63181250,-1.5407972,-49.212551
63210937.5,-1.54389,-49.054291
63240625,-1.5057348,-49.17292
63270312.5,-1.5358303,-49.324261
63300000,-1.5093871,-49.313293
63329687.5,-1.5016805,-49.096745
63359375,-1.5097009,-49.158665
63389062.5,-1.5219958,-49.288433
63418750,-1.5203178,-49.236046
63448437.5,-1.5322806,-49.22253
63478125,-1.5112498,-49.372772
63507812.5,-1.5113144,-49.251114
63537500,-1.503494,-49.28896
63567187.5,-1.4934633,-49.416294
63596875,-1.4881684,-49.194031
63626562.5,-1.4972527,-49.324036
63656250,-1.4904815,-49.442657
63685937.5,-1.5060786,-49.295345
63715625,-1.4842435,-49.455883
63745312.5,-1.4685047,-49.367466
63775000,-1.4642409,-49.58469
63804687.5,-1.4776644,-49.464592
63834375,-1.4638945,-49.38829
63864062.5,-1.4473505,-49.343285
63893750,-1.483089,-49.643391
63923437.5,-1.4539882,-49.451981
63953125,-1.4386171,-49.657471
63982812.5,-1.4428638,-49.532879
64012500,-1.4457576,-49.596928
64042187.5,-1.4437466,-49.624722
64071875,-1.4364818,-49.587543
64101562.5,-1.4265195,-49.439987
64131250,-1.4310075,-49.595886
64160937.5,-1.4051508,-49.641327
64190625,-1.425685,-49.721966
64220312.5,-1.4086449,-49.688225
64250000,-1.4000177,-49.905407
64279687.5,-1.3997834,-49.712154
64309375,-1.4014283,-49.783455
64339062.5,-1.4055336,-49.741375
64368750,-1.4044136,-49.986038
64398437.5,-1.3891649,-49.745739
64428125,-1.3972901,-49.737164
64457812.5,-1.3995793,-49.83297
64487500,-1.3783098,-49.873718
64517187.5,-1.3678452,-49.999992
64546875,-1.3588835,-50.008575
64576562.5,-1.3886431,-50.197762
64606250,-1.3503548,-50.137711
64635937.5,-1.3500888,-50.041477
64665625,-1.3481047,-50.128765
64695312.5,-1.3771417,-50.086189
64725000,-1.3507634,-50.045448
64754687.5,-1.3540857,-50.225277
64784375,-1.3460512,-50.134159
64814062.5,-1.3170685,-50.209019
64843750,-1.3336899,-50.237843
64873437.5,-1.3333118,-50.383347
64903125,-1.3339082,-50.352879
64932812.5,-1.3443031,-50.389805
64962500,-1.3237854,-50.40847
64992187.5,-1.3290001,-50.490585
65021875,-1.3200604,-50.575111
65051562.5,-1.3243433,-50.476093
65081250,-1.2948123,-50.487572
65110937.5,-1.3362459,-50.56884
65140625,-1.295432,-50.799522
65170312.5,-1.3046718,-50.632935
65200000,-1.309172,-50.641632
65229687.5,-1.2777339,-50.748447
65259375,-1.2974998,-50.727028
65289062.5,-1.2960447,-50.744316
65318750,-1.2837658,-50.726032
65348437.5,-1.2903582,-50.94503
65378125,-1.2881029,-51.045891
65407812.5,-1.2838182,-50.996899
65437500,-1.2775286,-51.03511
65467187.5,-1.2851058,-50.964432
65496875,-1.2753748,-51.194046
65526562.5,-1.2972735,-51.173328
65556250,-1.2690604,-51.304867
65585937.5,-1.2487239,-51.183891
65615625,-1.2658026,-51.233646
65645312.5,-1.2663713,-51.258614
65675000,-1.2714012,-51.271278
65704687.5,-1.2571774,-51.411213
65734375,-1.2635739,-51.434448
65764062.5,-1.2519647,-51.333759
65793750,-1.2614605,-51.582729
65823437.5,-1.2286046,-51.424404
65853125,-1.2248768,-51.561687
65882812.5,-1.2360026,-51.528183
65912500,-1.2490422,-51.690365
65942187.5,-1.2184424,-51.592831
65971875,-1.232401,-51.783951
66001562.5,-1.239903,-51.823483
66031250,-1.2205851,-51.740147
66060937.5,-1.2379187,-51.84668
66090625,-1.2313699,-51.886642
66120312.5,-1.2174677,-51.869675
66150000,-1.2166494,-51.966724
66179687.5,-1.210302,-52.021019
66209375,-1.1902633,-52.092682
66239062.5,-1.2142464,-52.161755
66268750,-1.2303357,-52.064629
66298437.5,-1.2098837,-52.043728
66328125,-1.2164547,-52.248318
66357812.5,-1.2321594,-52.250294
66387500,-1.2218187,-52.452976
66417187.5,-1.2182692,-52.302029
66446875,-1.2418109,-52.353756
66476562.5,-1.2077546,-52.549656
66506250,-1.2065561,-52.469566
66535937.5,-1.1997693,-52.702267
66565625,-1.2171634,-52.587749
66595312.5,-1.2208482,-52.59396
66625000,-1.1985477,-52.532078
66654687.5,-1.1972294,-52.809765
66684375,-1.2364656,-52.752525
66714062.5,-1.2050489,-52.775909
66743750,-1.1871879,-52.764362
66773437.5,-1.1921055,-53.082458
66803125,-1.1955075,-53.01453
66832812.5,-1.1971232,-53.114521
66862500,-1.2138299,-53.063309
66892187.5,-1.1757337,-53.034943
66921875,-1.1950368,-53.2075
66951562.5,-1.1973393,-53.1474
66981250,-1.1892562,-53.239704
67010937.5,-1.2034297,-53.245358
67040625,-1.2124281,-53.353733
67070312.5,-1.1799877,-53.29446
67100000,-1.1991409,-53.233761
67129687.5,-1.1697946,-53.423237
67159375,-1.2064379,-53.844311
67189062.5,-1.1686647,-53.58849
67218750,-1.2117565,-53.806366
67248437.5,-1.206333,-53.512669
67278125,-1.1933031,-53.629875
67307812.5,-1.1851077,-53.76545
67337500,-1.2019112,-53.851986
67367187.5,-1.2020059,-53.763317
67396875,-1.1725683,-54.055019
67426562.5,-1.1891203,-54.168755
67456250,-1.1642529,-53.997139
67485937.5,-1.1683683,-54.096291
67515625,-1.2010353,-53.996773
67545312.5,-1.2003616,-54.044777
67575000,-1.1651639,-54.259552
67604687.5,-1.1896802,-54.468704
67634375,-1.1977408,-54.250023
67664062.5,-1.2115386,-54.295929
67693750,-1.1974409,-54.361794
67723437.5,-1.1862261,-54.493977
67753125,-1.1857895,-54.619625
67782812.5,-1.1793563,-54.473488
67812500,-1.1901234,-54.539093
67842187.5,-1.1837051,-54.635162
67871875,-1.201719,-54.659447
