!CSV A.01.01
!Agilent Technologies,N5230C,MY49001079,A.09.31.02
!Agilent N5230C: A.09.31.02
!Date: Friday, November 15, 2019 16:14:02
!Source: Standard

BEGIN CH1_DATA
Freq(Hz),S11(DB),S11(DEG)
50000000,-1.2899431,-44.454494
50029687.5,-1.3009067,-44.725567
50059375,-1.310871,-44.677738
50089062.5,-1.3107569,-44.539234
50118750,-1.3155055,-44.628151
50148437.5,-1.324807,-44.710598
50178125,-1.3423088,-44.448444
50207812.5,-1.3415884,-44.529575
50237500,-1.3286982,-44.650764
50267187.5,-1.332352,-44.655537
50296875,-1.3695674,-44.674145
50326562.5,-1.3661669,-44.528976
50356250,-1.36031,-44.629471
50385937.5,-1.3971314,-44.60146
50415625,-1.402725,-44.485954
50445312.5,-1.4045428,-44.733738
50475000,-1.3995271,-44.534771
50504687.5,-1.4013798,-44.681812
50534375,-1.4229743,-44.729286
50564062.5,-1.414807,-44.632542
50593750,-1.4407687,-44.559635
50623437.5,-1.438437,-44.760933
50653125,-1.4449593,-44.409935
50682812.5,-1.4724638,-44.626987
50712500,-1.4638666,-44.584644
50742187.5,-1.4901525,-44.620705
50771875,-1.4823037,-44.50491
50801562.5,-1.4867338,-44.587688
50831250,-1.4734093,-44.579304
50860937.5,-1.5004892,-44.435684
50890625,-1.4969796,-44.53067
50920312.5,-1.4914272,-44.536064
50950000,-1.5160015,-44.495621
50979687.5,-1.5166615,-44.490726
51009375,-1.51844,-44.632576
51039062.5,-1.5207765,-44.590168
51068750,-1.518978,-44.399002
51098437.5,-1.5393826,-44.439255
51128125,-1.5444505,-44.366024
51157812.5,-1.5248621,-44.300858
51187500,-1.5381403,-44.378269
51217187.5,-1.5354578,-44.339409
51246875,-1.5582519,-44.33588
51276562.5,-1.5544069,-44.364265
51306250,-1.568266,-44.337345
51335937.5,-1.5785801,-44.301636
51365625,-1.5777203,-44.376282
51395312.5,-1.5827427,-44.13641
51425000,-1.5667223,-44.296448
51454687.5,-1.5855219,-44.226414
51484375,-1.588351,-44.311367
51514062.5,-1.5933393,-44.295364
51543750,-1.5959055,-44.350044
51573437.5,-1.6098257,-44.152344
51603125,-1.6028706,-44.166355
51632812.5,-1.607537,-44.098415
51662500,-1.6053677,-44.050804
51692187.5,-1.5913633,-44.111324
51721875,-1.599471,-44.046215
51751562.5,-1.6111555,-43.988312
51781250,-1.6205814,-44.004868
51810937.5,-1.6019086,-44.08765
51840625,-1.6129667,-43.967865
51870312.5,-1.638556,-44.066467
51900000,-1.6033005,-44.088207
51929687.5,-1.615537,-43.897976
51959375,-1.644402,-43.876827
51989062.5,-1.6160295,-43.913605
52018750,-1.6225309,-43.893112
52048437.5,-1.6195344,-43.942799
52078125,-1.6081234,-43.96981
52107812.5,-1.6234323,-43.974644
52137500,-1.6168871,-43.882244
52167187.5,-1.6171297,-43.812115
52196875,-1.6230406,-43.731686
52226562.5,-1.6260209,-43.801876
52256250,-1.6221851,-43.779671
52285937.5,-1.6221513,-43.747997
52315625,-1.6328728,-43.664394
52345312.5,-1.6211008,-43.754253
52375000,-1.6267071,-43.647346
52404687.5,-1.6057531,-43.601772
52434375,-1.613847,-43.713581
52464062.5,-1.6391548,-43.673447
52493750,-1.6118153,-43.651833
52523437.5,-1.6284755,-43.684288
52553125,-1.6219974,-43.61882
52582812.5,-1.6048541,-43.604801
52612500,-1.614248,-43.360523
52642187.5,-1.6172678,-43.583736
52671875,-1.6224475,-43.635197
52701562.5,-1.5920606,-43.610607
52731250,-1.6332188,-43.510006
52760937.5,-1.6279681,-43.588573
52790625,-1.6174384,-43.374889
52820312.5,-1.6146263,-43.477695
52850000,-1.6027715,-43.525204
52879687.5,-1.5901203,-43.449024
52909375,-1.6090946,-43.591129
52939062.5,-1.6092733,-43.520386
52968750,-1.5957047,-43.519516
52998437.5,-1.5970615,-43.664101
53028125,-1.5939692,-43.443638
53057812.5,-1.5897323,-43.351559
53087500,-1.6013528,-43.322556
53117187.5,-1.5958135,-43.426678
53146875,-1.588901,-43.319576
53176562.5,-1.5832965,-43.446228
53206250,-1.5610789,-43.467136
53235937.5,-1.5918086,-43.485489
53265625,-1.5873483,-43.438133
53295312.5,-1.5809152,-43.372871
53325000,-1.5657235,-43.530334
53354687.5,-1.5551043,-43.217655
53384375,-1.5824035,-43.350021
53414062.5,-1.5455047,-43.422722
53443750,-1.5863497,-43.44202
53473437.5,-1.5545796,-43.549862
53503125,-1.5582086,-43.559387
53532812.5,-1.5584668,-43.398952
53562500,-1.5504835,-43.46006
53592187.5,-1.5730768,-43.344963
53621875,-1.5614321,-43.400085
53651562.5,-1.5493145,-43.37524
53681250,-1.5447129,-43.524235
53710937.5,-1.532156,-43.477154
53740625,-1.5403056,-43.318958
53770312.5,-1.5144517,-43.449646
53800000,-1.5219387,-43.62606
53829687.5,-1.5327698,-43.396889
53859375,-1.5371723,-43.400082
53889062.5,-1.5140591,-43.503307
53918750,-1.5262775,-43.527069
53948437.5,-1.524786,-43.376545
53978125,-1.5150963,-43.485374
54007812.5,-1.5286384,-43.546822
54037500,-1.5214168,-43.675018
54067187.5,-1.5000403,-43.663715
54096875,-1.5328077,-43.636837
54126562.5,-1.5064229,-43.442509
54156250,-1.5127761,-43.766972
54185937.5,-1.5131565,-43.691635
54215625,-1.5084419,-43.819462
54245312.5,-1.5030541,-43.74654
54275000,-1.4922637,-43.602478
54304687.5,-1.5050936,-43.659508
54334375,-1.4849945,-43.679291
54364062.5,-1.4823273,-43.755013
54393750,-1.4811461,-43.768265
54423437.5,-1.493523,-43.955456
54453125,-1.4749224,-43.729675
54482812.5,-1.4718775,-43.735363
54512500,-1.4527243,-43.907307
54542187.5,-1.4581133,-43.909931
54571875,-1.5041493,-43.805779
54601562.5,-1.4660543,-43.711311
54631250,-1.4708105,-43.961571
54660937.5,-1.4390757,-43.753613
54690625,-1.4438521,-44.048145
54720312.5,-1.4398577,-43.893181
54750000,-1.457256,-44.067749
54779687.5,-1.4809858,-44.066154
54809375,-1.4412565,-44.100857
54839062.5,-1.4412663,-44.143986
54868750,-1.4274764,-44.06842
54898437.5,-1.4304107,-44.081429
54928125,-1.4234183,-44.002808
54957812.5,-1.4466023,-44.203373
54987500,-1.4489944,-44.21587
55017187.5,-1.4442964,-44.374855
55046875,-1.4392154,-44.244553
55076562.5,-1.4261601,-44.316959
55106250,-1.4189981,-44.239689
55135937.5,-1.4221262,-44.253323
55165625,-1.4106613,-44.381065
55195312.5,-1.432121,-44.415203
55225000,-1.410183,-44.456741
55254687.5,-1.4075344,-44.389774
55284375,-1.3966055,-44.566647
55314062.5,-1.4529316,-44.546356
55343750,-1.4283592,-44.466393
55373437.5,-1.3937773,-44.598949
55403125,-1.4258419,-44.709248
55432812.5,-1.412899,-44.693501
55462500,-1.4094911,-44.47813
55492187.5,-1.4263667,-44.724323
55521875,-1.4283751,-44.615181
55551562.5,-1.3927579,-44.701099
55581250,-1.3948402,-44.808201
55610937.5,-1.3948736,-44.763996
55640625,-1.3926321,-44.816563
55670312.5,-1.4036785,-44.910786
55700000,-1.4210442,-44.913502
55729687.5,-1.4095014,-44.971695
55759375,-1.4039799,-44.980568
55789062.5,-1.3962519,-44.804001
55818750,-1.3918691,-44.95467
55848437.5,-1.3834484,-44.939358
55878125,-1.391328,-45.1217
55907812.5,-1.3950814,-45.106834
55937500,-1.3852931,-45.22541
55967187.5,-1.3839934,-45.20364
55996875,-1.4073185,-45.069855
56026562.5,-1.3799821,-45.19828
56056250,-1.3865908,-45.131699
56085937.5,-1.378289,-45.371269
56115625,-1.4163105,-45.350903
56145312.5,-1.3764942,-45.479069
56175000,-1.3935289,-45.590103
56204687.5,-1.3807061,-45.375679
56234375,-1.3849715,-45.514473
56264062.5,-1.3806834,-45.572662
56293750,-1.3856162,-45.468788
56323437.5,-1.402746,-45.619751
56353125,-1.3827668,-45.69508
56382812.5,-1.3568114,-45.704727
56412500,-1.3864154,-45.670753
56442187.5,-1.3982954,-45.612415
56471875,-1.3982751,-45.759117
56501562.5,-1.3890308,-45.77935
56531250,-1.3937176,-45.813694
56560937.5,-1.3818363,-45.83342
56590625,-1.366153,-45.999336
56620312.5,-1.3621775,-45.906918
56650000,-1.3929787,-45.978664
56679687.5,-1.3919817,-46.09647
56709375,-1.4066654,-46.089794
56739062.5,-1.3742719,-46.195717
56768750,-1.389818,-46.169441
56798437.5,-1.3983474,-46.114899
56828125,-1.3866916,-45.965889
56857812.5,-1.3638194,-46.110973
56887500,-1.3668514,-46.250542
56917187.5,-1.3951113,-46.22068
56946875,-1.3722427,-46.233517
56976562.5,-1.3850164,-46.325455
57006250,-1.3801458,-46.402847
57035937.5,-1.3678645,-46.407902
57065625,-1.3662117,-46.408756
57095312.5,-1.3610165,-46.440182
57125000,-1.3601662,-46.513218
57154687.5,-1.3911756,-46.674061
57184375,-1.401106,-46.628551
57214062.5,-1.3910941,-46.613583
57243750,-1.3853371,-46.582481
57273437.5,-1.3891617,-46.676548
57303125,-1.3934306,-46.85146
57332812.5,-1.4015896,-46.678627
57362500,-1.3819647,-46.839863
57392187.5,-1.3910533,-46.819729
57421875,-1.39948,-46.816345
57451562.5,-1.4113483,-46.948112
57481250,-1.4115272,-46.982563
57510937.5,-1.3852408,-46.87859
57540625,-1.3984981,-46.985439
57570312.5,-1.4044135,-47.028252
57600000,-1.4073106,-47.081863
57629687.5,-1.4198167,-47.098141
57659375,-1.3885897,-47.175259
57689062.5,-1.4322091,-46.988842
57718750,-1.4190115,-47.215473
57748437.5,-1.4053789,-47.176964
57778125,-1.393031,-47.215492
57807812.5,-1.415128,-47.368649
57837500,-1.4351251,-47.36816
57867187.5,-1.4181802,-47.362061
57896875,-1.4253697,-47.42054
57926562.5,-1.4179136,-47.385674
57956250,-1.4233528,-47.4436
57985937.5,-1.4059767,-47.684242
58015625,-1.4208632,-47.710976
58045312.5,-1.4229945,-47.478851
58075000,-1.4208511,-47.596336
58104687.5,-1.3941783,-47.51823
58134375,-1.435459,-47.563271
58164062.5,-1.4239186,-47.642326
58193750,-1.4378855,-47.700657
58223437.5,-1.4265047,-47.769234
58253125,-1.4405218,-47.760189
58282812.5,-1.4516108,-47.814896
58312500,-1.4449711,-47.869614
58342187.5,-1.4535,-47.759571
58371875,-1.475201,-47.933758
58401562.5,-1.4530493,-47.992603
58431250,-1.4409238,-48.008575
58460937.5,-1.45276,-47.958218
58490625,-1.4627057,-48.154911
58520312.5,-1.4488348,-48.119453
58550000,-1.4745415,-48.123547
58579687.5,-1.4759665,-48.111588
58609375,-1.4836335,-48.050468
58639062.5,-1.4677649,-48.123398
58668750,-1.4684991,-48.202324
58698437.5,-1.4616061,-48.137547
58728125,-1.4608623,-48.189972
58757812.5,-1.4678632,-48.273781
58787500,-1.4971282,-48.381344
58817187.5,-1.5123949,-48.385578
58846875,-1.4886644,-48.289028
58876562.5,-1.4795215,-48.357456
58906250,-1.4742744,-48.406414
58935937.5,-1.5125502,-48.381592
58965625,-1.4992619,-48.519146
58995312.5,-1.5098734,-48.496956
59025000,-1.4980707,-48.631046
59054687.5,-1.4912099,-48.36005
59084375,-1.5091307,-48.535503
59114062.5,-1.4823236,-48.559654
59143750,-1.5172167,-48.59203
59173437.5,-1.5082133,-48.431747
59203125,-1.5228869,-48.685452
59232812.5,-1.5162697,-48.706875
59262500,-1.5193758,-48.57024
59292187.5,-1.5279838,-48.803257
59321875,-1.5220147,-48.833954
59351562.5,-1.5334377,-48.65366
59381250,-1.5139744,-48.62851
59410937.5,-1.5323988,-48.721115
59440625,-1.5417005,-48.791645
59470312.5,-1.5439055,-48.732201
59500000,-1.52862,-48.644341
59529687.5,-1.5476751,-48.796501
59559375,-1.5432708,-48.792439
59589062.5,-1.5557787,-48.769363
59618750,-1.5850967,-48.827255
59648437.5,-1.5540277,-48.842003
59678125,-1.5618403,-48.865662
59707812.5,-1.588511,-48.92741
59737500,-1.5748638,-48.924911
59767187.5,-1.5808368,-48.9599
59796875,-1.5714364,-49.047581
59826562.5,-1.592633,-48.995495
59856250,-1.5884025,-48.970081
59885937.5,-1.5765837,-49.014317
59915625,-1.5836886,-49.001659
59945312.5,-1.5963938,-48.966045
59975000,-1.592819,-49.170731
60004687.5,-1.5895722,-48.99477
60034375,-1.6203079,-49.096439
60064062.5,-1.5949777,-49.076084
60093750,-1.6006613,-49.057991
60123437.5,-1.6070453,-49.112686
60153125,-1.5942756,-49.020241
60182812.5,-1.6441847,-49.174114
60212500,-1.6204392,-49.178047
60242187.5,-1.6310167,-49.073841
60271875,-1.6415018,-49.050385
60301562.5,-1.6329204,-49.16378
60331250,-1.6251891,-49.013634
60360937.5,-1.6381465,-49.1008
60390625,-1.6144673,-49.135929
60420312.5,-1.636265,-49.126743
60450000,-1.6047748,-48.970322
60479687.5,-1.6284014,-48.947906
60509375,-1.6407545,-49.16758
60539062.5,-1.6503704,-49.169506
60568750,-1.6367675,-49.044956
60598437.5,-1.6560404,-49.029583
60628125,-1.6381981,-49.303921
60657812.5,-1.6341798,-48.99313
60687500,-1.6713563,-49.058922
60717187.5,-1.6471471,-48.797997
60746875,-1.6466004,-48.933239
60776562.5,-1.6272998,-49.113075
60806250,-1.6392958,-49.006271
60835937.5,-1.6478018,-49.035152
60865625,-1.6682293,-49.038326
60895312.5,-1.6707006,-48.999729
60925000,-1.6744828,-49.17511
60954687.5,-1.6680592,-49.190388
60984375,-1.6565574,-49.05312
61014062.5,-1.6397798,-49.044495
61043750,-1.6643151,-48.965195
61073437.5,-1.6629469,-48.97147
61103125,-1.6568307,-48.900921
61132812.5,-1.671008,-49.092567
61162500,-1.6717856,-48.929008
61192187.5,-1.6737767,-48.913521
61221875,-1.6799728,-48.814426
61251562.5,-1.6604215,-48.954315
61281250,-1.663074,-48.902767
61310937.5,-1.642936,-48.937046
61340625,-1.6414952,-48.877495
61370312.5,-1.6548494,-49.139839
61400000,-1.6700008,-48.912571
61429687.5,-1.66199,-48.739429
61459375,-1.6450338,-48.90099
61489062.5,-1.6261208,-48.910858
61518750,-1.6425961,-48.957539
61548437.5,-1.63957,-48.938927
61578125,-1.6233919,-48.836071
61607812.5,-1.6521277,-48.783756
61637500,-1.6182482,-48.899281
61667187.5,-1.6434784,-48.87392
61696875,-1.610113,-48.844864
61726562.5,-1.637854,-48.95475
61756250,-1.6261449,-48.92852
61785937.5,-1.6326123,-48.950558
61815625,-1.6356999,-48.895
61845312.5,-1.6091272,-48.994705
61875000,-1.6321704,-48.928753
61904687.5,-1.6071566,-48.766865
61934375,-1.6128253,-48.893154
61964062.5,-1.6207259,-48.967384
61993750,-1.6160977,-48.991196
62023437.5,-1.6301605,-48.942539
62053125,-1.6033529,-48.96328
62082812.5,-1.6173208,-48.917248
62112500,-1.5972482,-48.930927
62142187.5,-1.5943973,-49.079891
62171875,-1.6187221,-49.003025
62201562.5,-1.6189181,-48.886978
62231250,-1.5990943,-49.127289
62260937.5,-1.6271042,-49.028931
62290625,-1.6252764,-49.030136
62320312.5,-1.6122013,-48.999123
62350000,-1.5753343,-49.044617
62379687.5,-1.6130159,-48.990875
62409375,-1.6034517,-48.94125
62439062.5,-1.5979787,-48.998547
62468750,-1.5898777,-48.984627
62498437.5,-1.6075987,-49.107815
62528125,-1.5940746,-49.163399
62557812.5,-1.5786242,-48.87339
62587500,-1.5944638,-49.206951
62617187.5,-1.5672981,-48.933979
62646875,-1.5797108,-49.214096
62676562.5,-1.5621446,-49.159859
62706250,-1.5866141,-49.018692
62735937.5,-1.5826107,-48.905037
62765625,-1.5851513,-49.032734
62795312.5,-1.5642161,-49.125355
62825000,-1.5563555,-49.04303
62854687.5,-1.5772452,-49.140545
62884375,-1.5693508,-49.141106
62914062.5,-1.545172,-49.057842
62943750,-1.550482,-49.037346
62973437.5,-1.561573,-49.036343
63003125,-1.5542432,-49.174271
63032812.5,-1.5587971,-49.126766
63062500,-1.5598481,-49.109509
63092187.5,-1.5477999,-49.091438
63121875,-1.5436392,-49.18977
63151562.5,-1.5408732,-49.275005
63181250,-1.5190766,-49.112694
63210937.5,-1.5276301,-49.135239
63240625,-1.5173916,-49.204456
63270312.5,-1.5430886,-49.330399
63300000,-1.5160735,-49.29948
63329687.5,-1.510964,-49.160168
63359375,-1.4992524,-49.05386
63389062.5,-1.5234542,-49.224575
63418750,-1.5090197,-49.280907
63448437.5,-1.5335716,-49.249756
63478125,-1.4958282,-49.389751
63507812.5,-1.5040686,-49.366268
63537500,-1.4993105,-49.242958
63567187.5,-1.4970835,-49.390789
63596875,-1.4955932,-49.150524
63626562.5,-1.4980061,-49.275925
63656250,-1.482317,-49.479481
63685937.5,-1.4934822,-49.341381
63715625,-1.4888821,-49.409843
63745312.5,-1.4827845,-49.407455
63775000,-1.4779766,-49.518902
63804687.5,-1.4729111,-49.510036
63834375,-1.4720579,-49.512363
63864062.5,-1.4506518,-49.378632
63893750,-1.4637543,-49.598984
63923437.5,-1.4546496,-49.384956
63953125,-1.4263645,-49.640724
63982812.5,-1.4557468,-49.531906
64012500,-1.4278562,-49.547447
64042187.5,-1.4402919,-49.608982
64071875,-1.4248159,-49.552216
64101562.5,-1.4391061,-49.542759
64131250,-1.4412725,-49.569149
64160937.5,-1.3983127,-49.763775
64190625,-1.426626,-49.755733
64220312.5,-1.4129648,-49.722397
64250000,-1.3822495,-49.832981
64279687.5,-1.4079669,-49.838619
64309375,-1.3828293,-49.867172
64339062.5,-1.3898671,-49.752869
64368750,-1.400529,-49.977798
64398437.5,-1.3958888,-49.923046
64428125,-1.3923203,-49.836464
64457812.5,-1.4091239,-49.935837
64487500,-1.3826491,-49.936676
64517187.5,-1.3729551,-49.859493
64546875,-1.3587998,-49.882534
64576562.5,-1.3736215,-50.020306
64606250,-1.3552803,-50.087708
64635937.5,-1.3603346,-50.036877
64665625,-1.3524312,-50.090797
64695312.5,-1.3803344,-50.111294
64725000,-1.3528951,-50.030071
64754687.5,-1.3602759,-50.155403
64784375,-1.3326131,-50.246361
64814062.5,-1.3251383,-50.153725
64843750,-1.3649162,-50.229671
64873437.5,-1.3321881,-50.3237
64903125,-1.3367476,-50.260975
64932812.5,-1.3514627,-50.260052
64962500,-1.32155,-50.479816
64992187.5,-1.3231109,-50.443592
65021875,-1.3189087,-50.557774
65051562.5,-1.3284549,-50.496532
65081250,-1.2961923,-50.568203
65110937.5,-1.3151741,-50.558186
65140625,-1.3208567,-50.812805
65170312.5,-1.3050727,-50.709297
65200000,-1.3075818,-50.567284
65229687.5,-1.2804357,-50.717983
65259375,-1.2671226,-50.691689
65289062.5,-1.3113046,-50.865448
65318750,-1.2750417,-50.787636
65348437.5,-1.3127447,-50.879345
65378125,-1.2849212,-51.070671
65407812.5,-1.2811316,-51.031429
65437500,-1.2788563,-51.101376
65467187.5,-1.2915841,-51.071411
65496875,-1.2641077,-51.082458
65526562.5,-1.2901374,-51.168327
65556250,-1.2622113,-51.147785
65585937.5,-1.2628562,-51.105301
65615625,-1.2666526,-51.266006
65645312.5,-1.2703551,-51.286377
65675000,-1.2796409,-51.296703
65704687.5,-1.2528653,-51.346901
65734375,-1.276389,-51.431934
65764062.5,-1.233677,-51.350513
65793750,-1.2612692,-51.48151
65823437.5,-1.2508681,-51.509769
65853125,-1.2377414,-51.494431
65882812.5,-1.2500446,-51.45631
65912500,-1.2386836,-51.517525
65942187.5,-1.2129251,-51.660526
65971875,-1.2349633,-51.635567
66001562.5,-1.2491713,-51.73563
66031250,-1.2395005,-51.626099
66060937.5,-1.2343123,-51.781853
66090625,-1.2224551,-51.849735
66120312.5,-1.2199187,-51.971107
66150000,-1.2145917,-51.975632
66179687.5,-1.2097003,-52.014065
66209375,-1.2076386,-52.073097
66239062.5,-1.2258568,-52.139591
66268750,-1.2528628,-52.115314
66298437.5,-1.2162638,-52.036156
66328125,-1.2212334,-52.186886
66357812.5,-1.2478112,-52.178062
66387500,-1.2295126,-52.473011
66417187.5,-1.2076241,-52.309242
66446875,-1.2319406,-52.391724
66476562.5,-1.2288129,-52.564232
66506250,-1.1962585,-52.490398
66535937.5,-1.2216018,-52.628754
66565625,-1.2280141,-52.532978
66595312.5,-1.228207,-52.703815
66625000,-1.2081257,-52.406315
66654687.5,-1.1901788,-52.837254
66684375,-1.238685,-52.715717
66714062.5,-1.1865208,-52.825245
66743750,-1.2160527,-52.818081
66773437.5,-1.187117,-53.207413
66803125,-1.2144333,-52.986935
66832812.5,-1.202039,-52.938915
66862500,-1.1945487,-53.134312
66892187.5,-1.1919994,-53.089451
66921875,-1.1929809,-53.159538
66951562.5,-1.1885303,-53.143616
66981250,-1.1826286,-53.25412
67010937.5,-1.2014161,-53.253368
67040625,-1.2057675,-53.343945
67070312.5,-1.1871395,-53.344624
67100000,-1.1963925,-53.159527
67129687.5,-1.1785719,-53.321434
67159375,-1.1978186,-53.733154
67189062.5,-1.1821314,-53.535755
67218750,-1.2118913,-53.681965
67248437.5,-1.2045281,-53.583553
67278125,-1.1833936,-53.551758
67307812.5,-1.1869754,-53.753166
67337500,-1.1901995,-53.784611
67367187.5,-1.1817589,-53.934898
67396875,-1.1998715,-54.102486
67426562.5,-1.1816887,-54.083759
67456250,-1.1701863,-54.03944
67485937.5,-1.1807842,-54.016388
67515625,-1.2100565,-54.033394
67545312.5,-1.192328,-54.089172
67575000,-1.1586354,-54.212402
67604687.5,-1.186455,-54.430077
67634375,-1.1907904,-54.37352
67664062.5,-1.2251091,-54.250771
67693750,-1.1900088,-54.397854
67723437.5,-1.1914239,-54.537884
67753125,-1.1898192,-54.542709
67782812.5,-1.1848475,-54.479156
67812500,-1.1898935,-54.466728
67842187.5,-1.1785246,-54.571777
67871875,-1.1882353,-54.734028
67901562.5,-1.1818631,-54.743484
