!CSV A.01.01
!Agilent Technologies,N5230C,MY49001079,A.09.31.02
!Agilent N5230C: A.09.31.02
!Date: Friday, November 15, 2019 16:14:21
!Source: Standard

BEGIN CH1_DATA
Freq(Hz),S11(DB),S11(DEG)
50000000,-1.2852373,-44.498024
50029687.5,-1.3132818,-44.743958
50059375,-1.3188187,-44.647194
50089062.5,-1.3277267,-44.505779
50118750,-1.3241837,-44.65723
50148437.5,-1.3183855,-44.63834
50178125,-1.3435144,-44.511608
50207812.5,-1.3427846,-44.625534
50237500,-1.3437387,-44.574791
50267187.5,-1.3440458,-44.647289
50296875,-1.3721828,-44.719223
50326562.5,-1.3734034,-44.606079
50356250,-1.367942,-44.549915
50385937.5,-1.4030509,-44.573933
50415625,-1.4197595,-44.541611
50445312.5,-1.417322,-44.689056
50475000,-1.3944683,-44.470627
50504687.5,-1.4149971,-44.735825
50534375,-1.430566,-44.522579
50564062.5,-1.4186925,-44.626553
50593750,-1.4279741,-44.648239
50623437.5,-1.4394453,-44.818947
50653125,-1.4493732,-44.580715
50682812.5,-1.470423,-44.643505
50712500,-1.4590384,-44.566872
50742187.5,-1.486387,-44.525063
50771875,-1.4673088,-44.554447
50801562.5,-1.4833573,-44.601673
50831250,-1.4856724,-44.497486
50860937.5,-1.4865003,-44.468472
50890625,-1.5004933,-44.611515
50920312.5,-1.486382,-44.601994
50950000,-1.5209348,-44.450016
50979687.5,-1.5184917,-44.489071
51009375,-1.5200574,-44.57486
51039062.5,-1.5109838,-44.620716
51068750,-1.5275055,-44.306252
51098437.5,-1.5476347,-44.417225
51128125,-1.5399191,-44.368752
51157812.5,-1.5245178,-44.33762
51187500,-1.5396441,-44.386162
51217187.5,-1.5458268,-44.536381
51246875,-1.5505306,-44.347782
51276562.5,-1.564841,-44.386044
51306250,-1.5737472,-44.388924
51335937.5,-1.5804601,-44.314838
51365625,-1.5752168,-44.390182
51395312.5,-1.582643,-44.233635
51425000,-1.5729263,-44.408615
51454687.5,-1.595207,-44.173294
51484375,-1.5993136,-44.300743
51514062.5,-1.6063075,-44.254921
51543750,-1.5950433,-44.306271
51573437.5,-1.5993723,-44.161835
51603125,-1.5943092,-44.173729
51632812.5,-1.6043141,-44.017353
51662500,-1.609316,-44.09848
51692187.5,-1.5854473,-44.087524
51721875,-1.5944536,-44.057037
51751562.5,-1.607006,-44.064426
51781250,-1.6145713,-43.999779
51810937.5,-1.6057351,-44.054173
51840625,-1.6072987,-44.02721
51870312.5,-1.6471202,-44.094898
51900000,-1.5994607,-44.037685
51929687.5,-1.6169933,-43.816311
51959375,-1.6327553,-43.864281
51989062.5,-1.6076649,-43.880482
52018750,-1.6275251,-43.924042
52048437.5,-1.6152627,-43.912605
52078125,-1.6067003,-43.949463
52107812.5,-1.6232637,-43.915993
52137500,-1.6239386,-43.917221
52167187.5,-1.6062347,-43.813133
52196875,-1.6113386,-43.679153
52226562.5,-1.6179249,-43.717987
52256250,-1.6195261,-43.771427
52285937.5,-1.6163348,-43.736626
52315625,-1.6399026,-43.561153
52345312.5,-1.6229203,-43.760616
52375000,-1.6256983,-43.687878
52404687.5,-1.606312,-43.668839
52434375,-1.6132325,-43.694599
52464062.5,-1.6368872,-43.633835
52493750,-1.6261486,-43.581036
52523437.5,-1.636863,-43.679779
52553125,-1.630801,-43.640747
52582812.5,-1.6052698,-43.450645
52612500,-1.6067966,-43.346909
52642187.5,-1.6279576,-43.589897
52671875,-1.6187457,-43.618637
52701562.5,-1.5945003,-43.476139
52731250,-1.6083134,-43.499504
52760937.5,-1.6235677,-43.586418
52790625,-1.6115708,-43.325817
52820312.5,-1.6144166,-43.439915
52850000,-1.6145552,-43.585861
52879687.5,-1.6159199,-43.543518
52909375,-1.6078595,-43.47308
52939062.5,-1.6141843,-43.491638
52968750,-1.6242152,-43.504726
52998437.5,-1.5946975,-43.542843
53028125,-1.595589,-43.440357
53057812.5,-1.5883055,-43.438774
53087500,-1.5945318,-43.389721
53117187.5,-1.5982671,-43.409782
53146875,-1.5895876,-43.34943
53176562.5,-1.5781088,-43.388065
53206250,-1.571528,-43.444973
53235937.5,-1.5942345,-43.494778
53265625,-1.5772328,-43.36652
53295312.5,-1.5756688,-43.354305
53325000,-1.5773367,-43.462559
53354687.5,-1.5686905,-43.392399
53384375,-1.5811182,-43.344269
53414062.5,-1.5649376,-43.514263
53443750,-1.5860933,-43.312008
53473437.5,-1.5731521,-43.400551
53503125,-1.5552258,-43.538883
53532812.5,-1.5446274,-43.453949
53562500,-1.5728866,-43.461754
53592187.5,-1.5616691,-43.387341
53621875,-1.5546399,-43.460606
53651562.5,-1.5489221,-43.30669
53681250,-1.5419241,-43.493446
53710937.5,-1.5503839,-43.456913
53740625,-1.5329988,-43.437679
53770312.5,-1.5202007,-43.444572
53800000,-1.5322931,-43.544655
53829687.5,-1.5471545,-43.458614
53859375,-1.5261719,-43.436031
53889062.5,-1.5481721,-43.490704
53918750,-1.5153562,-43.59544
53948437.5,-1.5267428,-43.453724
53978125,-1.5185599,-43.533985
54007812.5,-1.5384616,-43.647278
54037500,-1.5092179,-43.763767
54067187.5,-1.4976293,-43.577473
54096875,-1.5163819,-43.601486
54126562.5,-1.4898275,-43.463047
54156250,-1.5097327,-43.720005
54185937.5,-1.513855,-43.744232
54215625,-1.5095807,-43.780098
54245312.5,-1.4970459,-43.838745
54275000,-1.5193675,-43.642353
54304687.5,-1.4947219,-43.537231
54334375,-1.5036494,-43.74498
54364062.5,-1.5003415,-43.68359
54393750,-1.4795668,-43.70702
54423437.5,-1.4910733,-43.876137
54453125,-1.4756147,-43.801571
54482812.5,-1.4647883,-43.709446
54512500,-1.4601476,-43.719696
54542187.5,-1.4614826,-43.905048
54571875,-1.4902068,-43.740093
54601562.5,-1.4737989,-43.688869
54631250,-1.4628515,-43.903591
54660937.5,-1.453855,-43.928074
54690625,-1.4571649,-43.98386
54720312.5,-1.4265145,-43.915054
54750000,-1.4626664,-43.908035
54779687.5,-1.4702083,-44.040001
54809375,-1.4402641,-44.105904
54839062.5,-1.4331433,-44.161095
54868750,-1.4468515,-43.995903
54898437.5,-1.4449922,-44.124332
54928125,-1.4431905,-44.002186
54957812.5,-1.4429337,-44.326492
54987500,-1.4499942,-44.146603
55017187.5,-1.45065,-44.379753
55046875,-1.433373,-44.326645
55076562.5,-1.4285879,-44.46278
55106250,-1.4368489,-44.318764
55135937.5,-1.4352407,-44.199322
55165625,-1.4029354,-44.380642
55195312.5,-1.4348925,-44.503151
55225000,-1.4105846,-44.491894
55254687.5,-1.4170893,-44.408573
55284375,-1.4051685,-44.552383
55314062.5,-1.4258848,-44.473888
55343750,-1.4170448,-44.461231
55373437.5,-1.3973835,-44.582062
55403125,-1.4132895,-44.657677
55432812.5,-1.4005785,-44.674816
55462500,-1.4113485,-44.530792
55492187.5,-1.4163736,-44.773468
55521875,-1.415132,-44.689461
55551562.5,-1.4068184,-44.642048
55581250,-1.393842,-44.716999
55610937.5,-1.4069616,-44.807404
55640625,-1.3858802,-44.817024
55670312.5,-1.4096383,-44.970734
55700000,-1.4171538,-44.840481
55729687.5,-1.4067643,-44.874283
55759375,-1.3906198,-44.969265
55789062.5,-1.370443,-44.937851
55818750,-1.3882192,-44.930733
55848437.5,-1.381703,-44.904095
55878125,-1.3937042,-45.020603
55907812.5,-1.4013312,-45.01075
55937500,-1.3872232,-45.276699
55967187.5,-1.3806329,-45.202812
55996875,-1.3932858,-45.050358
56026562.5,-1.3810487,-45.243561
56056250,-1.381415,-45.175945
56085937.5,-1.3696451,-45.371288
56115625,-1.4060128,-45.42046
56145312.5,-1.3677186,-45.43412
56175000,-1.3888901,-45.588634
56204687.5,-1.3689277,-45.421032
56234375,-1.3994795,-45.492229
56264062.5,-1.3871104,-45.615154
56293750,-1.3918109,-45.520348
56323437.5,-1.3852643,-45.474098
56353125,-1.3864243,-45.72654
56382812.5,-1.3671304,-45.602142
56412500,-1.3919293,-45.727455
56442187.5,-1.3955499,-45.632793
56471875,-1.4052972,-45.690826
56501562.5,-1.3860037,-45.851841
56531250,-1.3690721,-45.922756
56560937.5,-1.3854532,-45.96106
56590625,-1.3679283,-46.080822
56620312.5,-1.364107,-45.919903
56650000,-1.3776708,-45.930733
56679687.5,-1.3842361,-46.007938
56709375,-1.4230107,-46.035206
56739062.5,-1.3681129,-46.132103
56768750,-1.3826463,-46.105804
56798437.5,-1.3925768,-46.213146
56828125,-1.3876842,-46.035645
56857812.5,-1.3774208,-46.100952
56887500,-1.3852001,-46.155289
56917187.5,-1.407414,-46.292183
56946875,-1.3929342,-46.320297
56976562.5,-1.4007881,-46.276852
57006250,-1.389183,-46.518436
57035937.5,-1.3701987,-46.444275
57065625,-1.3748578,-46.423706
57095312.5,-1.3749461,-46.392174
57125000,-1.3692522,-46.539051
57154687.5,-1.3900391,-46.620163
57184375,-1.4064521,-46.657154
57214062.5,-1.398423,-46.556026
57243750,-1.3869221,-46.606323
57273437.5,-1.4022791,-46.7061
57303125,-1.4062941,-46.839706
57332812.5,-1.3924267,-46.698414
57362500,-1.394708,-46.751484
57392187.5,-1.3939106,-46.809269
57421875,-1.4072033,-46.930592
57451562.5,-1.4217236,-46.996979
57481250,-1.4098815,-46.896568
57510937.5,-1.3981285,-46.920326
57540625,-1.399228,-46.943535
57570312.5,-1.4119185,-46.973747
57600000,-1.4042938,-47.026077
57629687.5,-1.4056059,-47.178768
57659375,-1.4109551,-47.243206
57689062.5,-1.4303095,-47.121666
57718750,-1.4242437,-47.208134
57748437.5,-1.4253811,-47.154537
57778125,-1.4026442,-47.216854
57807812.5,-1.4292127,-47.316105
57837500,-1.4216276,-47.371628
57867187.5,-1.4154215,-47.400723
57896875,-1.4346639,-47.473175
57926562.5,-1.4303366,-47.309696
57956250,-1.4248842,-47.430122
57985937.5,-1.4119864,-47.632797
58015625,-1.4272237,-47.616554
58045312.5,-1.4199613,-47.48241
58075000,-1.4329685,-47.591961
58104687.5,-1.4024265,-47.466324
58134375,-1.4406843,-47.61961
58164062.5,-1.3985629,-47.605824
58193750,-1.4308382,-47.720642
58223437.5,-1.4161743,-47.788483
58253125,-1.4488944,-47.791779
58282812.5,-1.4526473,-47.955284
58312500,-1.4644086,-47.80341
58342187.5,-1.4491856,-47.856789
58371875,-1.4578227,-47.861416
58401562.5,-1.4318887,-47.933193
58431250,-1.4449722,-48.069099
58460937.5,-1.4742095,-48.013065
58490625,-1.4576021,-48.0611
58520312.5,-1.4538193,-48.101265
58550000,-1.4556175,-48.061672
58579687.5,-1.4596932,-48.246063
58609375,-1.4900926,-48.102703
58639062.5,-1.4788705,-48.269005
58668750,-1.4602188,-48.251724
58698437.5,-1.4697373,-48.128902
58728125,-1.4908626,-48.159611
58757812.5,-1.4585491,-48.274025
58787500,-1.4874828,-48.172989
58817187.5,-1.4843687,-48.504353
58846875,-1.4834601,-48.274059
58876562.5,-1.4712367,-48.356869
58906250,-1.4788773,-48.396088
58935937.5,-1.4899408,-48.43277
58965625,-1.5083077,-48.444424
58995312.5,-1.5020163,-48.445641
59025000,-1.5075437,-48.543659
59054687.5,-1.4955096,-48.361061
59084375,-1.5147179,-48.617058
59114062.5,-1.4783994,-48.473469
59143750,-1.50766,-48.650669
59173437.5,-1.4898986,-48.400009
59203125,-1.5330461,-48.74099
59232812.5,-1.5278357,-48.619297
59262500,-1.5114385,-48.59407
59292187.5,-1.5242627,-48.763432
59321875,-1.5235486,-48.802055
59351562.5,-1.5285287,-48.65369
59381250,-1.5244529,-48.630871
59410937.5,-1.5214454,-48.624878
59440625,-1.547627,-48.831463
59470312.5,-1.5256939,-48.768917
59500000,-1.537717,-48.741703
59529687.5,-1.5542459,-48.677624
59559375,-1.5521603,-48.851658
59589062.5,-1.552682,-48.840199
59618750,-1.5537927,-48.815815
59648437.5,-1.5610584,-48.707867
59678125,-1.5670949,-48.870396
59707812.5,-1.5693753,-48.794785
59737500,-1.5771558,-48.917088
59767187.5,-1.5804684,-48.943119
59796875,-1.587641,-48.989891
59826562.5,-1.5914639,-49.064552
59856250,-1.5884089,-48.935986
59885937.5,-1.5948209,-48.914364
59915625,-1.5653737,-48.93119
59945312.5,-1.6006707,-48.873039
59975000,-1.6008055,-48.995274
60004687.5,-1.5801378,-49.019875
60034375,-1.6163576,-49.012115
60064062.5,-1.6084574,-49.025597
60093750,-1.6069407,-49.092033
60123437.5,-1.6162497,-49.160744
60153125,-1.6013963,-49.00626
60182812.5,-1.6138647,-49.057343
60212500,-1.6071597,-49.098721
60242187.5,-1.6206412,-48.879616
60271875,-1.6333869,-48.963615
60301562.5,-1.6286534,-49.144196
60331250,-1.6281149,-48.974731
60360937.5,-1.6250813,-49.121319
60390625,-1.6215528,-49.205265
60420312.5,-1.6340482,-49.182285
60450000,-1.6080259,-48.919483
60479687.5,-1.6291672,-48.901775
60509375,-1.6280262,-49.071732
60539062.5,-1.6601013,-49.130764
60568750,-1.628191,-49.050335
60598437.5,-1.6493067,-49.025768
60628125,-1.658024,-49.198479
60657812.5,-1.629595,-49.046223
60687500,-1.6728368,-49.051571
60717187.5,-1.6520923,-48.810131
60746875,-1.6636058,-48.907288
60776562.5,-1.6471013,-49.064335
60806250,-1.6603986,-48.971386
60835937.5,-1.6546054,-49.081161
60865625,-1.6736468,-48.911896
60895312.5,-1.6777048,-48.873936
60925000,-1.6714039,-49.037617
60954687.5,-1.6514179,-49.189545
60984375,-1.6503301,-48.966255
61014062.5,-1.6502173,-49.093578
61043750,-1.6458679,-48.990662
61073437.5,-1.6627759,-48.847984
61103125,-1.6600684,-48.955196
61132812.5,-1.661323,-49.030788
61162500,-1.6820552,-48.966938
61192187.5,-1.6668204,-48.870781
61221875,-1.6454157,-48.954853
61251562.5,-1.661177,-48.92485
61281250,-1.666477,-48.917801
61310937.5,-1.6560882,-48.840755
61340625,-1.646237,-48.818348
61370312.5,-1.6565858,-49.138916
61400000,-1.6694926,-48.859566
61429687.5,-1.6688761,-48.870922
61459375,-1.6502454,-48.955345
61489062.5,-1.6306534,-48.90163
61518750,-1.6419964,-48.942501
61548437.5,-1.6624516,-48.847065
61578125,-1.6287912,-48.720364
61607812.5,-1.6562047,-48.842308
61637500,-1.6246715,-48.953819
61667187.5,-1.6273668,-48.932724
61696875,-1.6192161,-48.910938
61726562.5,-1.6370918,-48.992252
61756250,-1.6230048,-49.085762
61785937.5,-1.6152121,-48.863968
61815625,-1.6238576,-48.977119
61845312.5,-1.6203641,-48.972561
61875000,-1.6490675,-48.959946
61904687.5,-1.602433,-48.764801
61934375,-1.6110229,-49.000877
61964062.5,-1.6220548,-49.059666
61993750,-1.6158899,-48.924061
62023437.5,-1.6265712,-48.789616
62053125,-1.6098506,-49.005409
62082812.5,-1.6229694,-49.030231
62112500,-1.6075286,-48.90485
62142187.5,-1.5858043,-49.110992
62171875,-1.6387755,-49.115406
62201562.5,-1.6183553,-49.0746
62231250,-1.6068395,-49.066357
62260937.5,-1.6163148,-49.084961
62290625,-1.6042348,-48.990162
62320312.5,-1.6123385,-49.082886
62350000,-1.5979474,-48.936707
62379687.5,-1.6014662,-48.95779
62409375,-1.599701,-49.163109
62439062.5,-1.6097622,-49.002758
62468750,-1.603676,-48.970165
62498437.5,-1.6222836,-49.095314
62528125,-1.5856478,-49.124493
62557812.5,-1.5846224,-48.93029
62587500,-1.6041908,-49.235893
62617187.5,-1.5674566,-48.939297
62646875,-1.5841171,-49.227997
62676562.5,-1.5795656,-49.204147
62706250,-1.5693403,-49.005878
62735937.5,-1.5792606,-48.872871
62765625,-1.5862784,-49.03014
62795312.5,-1.576171,-49.045002
62825000,-1.5691992,-49.080845
62854687.5,-1.5759404,-49.106033
62884375,-1.5723999,-49.114491
62914062.5,-1.5361669,-49.058479
62943750,-1.5466893,-49.04921
62973437.5,-1.5670575,-49.063927
63003125,-1.55958,-49.181274
63032812.5,-1.5684803,-49.098213
63062500,-1.5432404,-49.139587
63092187.5,-1.5380596,-49.154293
63121875,-1.5389137,-49.140057
63151562.5,-1.544659,-49.143162
63181250,-1.5289801,-49.151028
63210937.5,-1.5247432,-49.160431
63240625,-1.503778,-49.143692
63270312.5,-1.5470203,-49.269932
63300000,-1.5140443,-49.368961
63329687.5,-1.5148062,-49.100239
63359375,-1.5054148,-49.145237
63389062.5,-1.5233681,-49.255165
63418750,-1.5198951,-49.194267
63448437.5,-1.518334,-49.242027
63478125,-1.5008363,-49.367649
63507812.5,-1.5010332,-49.340103
63537500,-1.5105799,-49.366474
63567187.5,-1.4893537,-49.393108
63596875,-1.4892383,-49.240353
63626562.5,-1.492879,-49.232719
63656250,-1.4773617,-49.431908
63685937.5,-1.4835539,-49.315136
63715625,-1.4942023,-49.422337
63745312.5,-1.4743992,-49.453423
63775000,-1.4592459,-49.560177
63804687.5,-1.4842122,-49.486488
63834375,-1.4783973,-49.506233
63864062.5,-1.4569402,-49.371372
63893750,-1.4586216,-49.62426
63923437.5,-1.4326162,-49.463707
63953125,-1.4355363,-49.674454
63982812.5,-1.4523412,-49.528839
64012500,-1.4367732,-49.689415
64042187.5,-1.4481679,-49.626354
64071875,-1.4238003,-49.495232
64101562.5,-1.4404169,-49.522739
64131250,-1.4405215,-49.501896
64160937.5,-1.3977315,-49.712952
64190625,-1.4259683,-49.657143
64220312.5,-1.3933825,-49.693085
64250000,-1.390518,-49.842361
64279687.5,-1.3987312,-49.777321
64309375,-1.3817539,-49.895332
64339062.5,-1.3919414,-49.786606
64368750,-1.4055209,-49.925629
64398437.5,-1.3789492,-49.785347
64428125,-1.3936541,-49.810886
64457812.5,-1.384837,-49.902969
64487500,-1.3640661,-49.861736
64517187.5,-1.3833612,-49.912563
64546875,-1.3755141,-49.928108
64576562.5,-1.3642663,-50.148979
64606250,-1.3414294,-50.091923
64635937.5,-1.3613353,-49.997578
64665625,-1.3519564,-50.107903
64695312.5,-1.3678142,-50.087803
64725000,-1.3502756,-50.067978
64754687.5,-1.3639135,-50.187527
64784375,-1.3231628,-50.275772
64814062.5,-1.3253373,-50.162342
64843750,-1.3372437,-50.167282
64873437.5,-1.3330362,-50.284611
64903125,-1.3413657,-50.2999
64932812.5,-1.3444822,-50.319904
64962500,-1.3306178,-50.457535
64992187.5,-1.3186918,-50.40287
65021875,-1.3215797,-50.59164
65051562.5,-1.3255818,-50.383675
65081250,-1.3013693,-50.560127
65110937.5,-1.3158045,-50.58247
65140625,-1.3155458,-50.628563
65170312.5,-1.3053949,-50.733051
65200000,-1.3122182,-50.649509
65229687.5,-1.2887573,-50.644894
65259375,-1.2808218,-50.664795
65289062.5,-1.2991122,-50.764534
65318750,-1.2985258,-50.73838
65348437.5,-1.3266374,-50.96302
65378125,-1.2773685,-50.963627
65407812.5,-1.2968193,-50.919113
65437500,-1.2771198,-50.939198
65467187.5,-1.2684258,-51.021099
65496875,-1.2917275,-51.052048
65526562.5,-1.2804626,-51.16259
65556250,-1.264048,-51.177029
65585937.5,-1.2700132,-51.01577
65615625,-1.249885,-51.298939
65645312.5,-1.2500463,-51.212791
65675000,-1.2654788,-51.397968
65704687.5,-1.2389753,-51.375198
65734375,-1.2731224,-51.353905
65764062.5,-1.2523544,-51.42392
65793750,-1.2813344,-51.395855
65823437.5,-1.2330536,-51.55479
65853125,-1.2188411,-51.531853
65882812.5,-1.2446781,-51.432484
65912500,-1.2252883,-51.660137
65942187.5,-1.2232572,-51.571537
65971875,-1.2259847,-51.676594
66001562.5,-1.254153,-51.768856
66031250,-1.2351918,-51.696438
66060937.5,-1.2316751,-51.757126
66090625,-1.2357618,-51.839008
66120312.5,-1.2095097,-51.925396
66150000,-1.217882,-51.906883
66179687.5,-1.2100551,-52.017479
66209375,-1.1931711,-52.056606
66239062.5,-1.2381293,-52.049969
66268750,-1.2465327,-52.173031
66298437.5,-1.2146252,-52.070221
66328125,-1.2003309,-52.310349
66357812.5,-1.2332109,-52.298576
66387500,-1.2277296,-52.358017
66417187.5,-1.2044493,-52.23151
66446875,-1.2403761,-52.377644
66476562.5,-1.2060641,-52.65081
66506250,-1.1794629,-52.464096
66535937.5,-1.1999282,-52.564747
66565625,-1.2311039,-52.5797
66595312.5,-1.203903,-52.545712
66625000,-1.1965158,-52.598118
66654687.5,-1.2072289,-52.691509
66684375,-1.2271787,-52.779545
66714062.5,-1.2014925,-52.754154
66743750,-1.2050039,-52.720478
66773437.5,-1.178744,-53.077839
66803125,-1.1788663,-52.997135
66832812.5,-1.2087886,-53.049187
66862500,-1.2072619,-53.112179
66892187.5,-1.1906602,-52.98278
66921875,-1.199361,-53.207546
66951562.5,-1.1856397,-53.079971
66981250,-1.1942738,-53.138222
67010937.5,-1.1932087,-53.284069
67040625,-1.1947919,-53.402977
67070312.5,-1.1987317,-53.417061
67100000,-1.2003331,-53.206436
67129687.5,-1.1739922,-53.325699
67159375,-1.2149689,-53.82235
67189062.5,-1.1813928,-53.407021
67218750,-1.2074367,-53.741531
67248437.5,-1.2096057,-53.550217
67278125,-1.1938418,-53.666061
67307812.5,-1.1882839,-53.834064
67337500,-1.190493,-53.954399
67367187.5,-1.187861,-53.794224
67396875,-1.175476,-54.083138
67426562.5,-1.1856565,-54.06422
67456250,-1.1740481,-53.967831
67485937.5,-1.1871762,-54.053669
67515625,-1.2153592,-54.03651
67545312.5,-1.2069387,-54.104877
67575000,-1.1587646,-54.243542
67604687.5,-1.1841975,-54.299332
67634375,-1.1848912,-54.3498
67664062.5,-1.197994,-54.254032
67693750,-1.195326,-54.455986
67723437.5,-1.1723521,-54.406563
67753125,-1.1885123,-54.541798
67782812.5,-1.1574585,-54.542114
67812500,-1.1916555,-54.423546
67842187.5,-1.1777838,-54.559734
67871875,-1.1978949,-54.687366
67901562.5,-1.1773391,-54.791275
